
T1EE4 000:639 SEGGER J-Link V4.86a Log File (0001ms, 0329ms total)
T1EE4 000:639 DLL Compiled: Jun 11 2014 17:22:49 (0001ms, 0329ms total)
T1EE4 000:639 Logging started @ 2015-07-31 16:42 (0001ms, 0329ms total)
T1EE4 000:640 JLINK_SetWarnOutHandler(...) (0000ms, 0329ms total)
T1EE4 000:641 JLINK_OpenEx(...)
Firmware: J-Link ARM-OB STM32 compiled Aug 22 2012 19:52:04
Hardware: V7.00
S/N: 20090928
Feature(s): RDI,FlashDL,FlashBP,JFlash,GDBFull  returns O.K. (0279ms, 0609ms total)
T1EE4 000:920 JLINK_SetErrorOutHandler(...) (0000ms, 0609ms total)
T1EE4 000:920 JLINK_ExecCommand("ProjectFile = "C:\Users\juma\Desktop\mesh_nordic\mesh_1\user\advertiser\arm\JLinkSettings.ini"", ...)  returns 0x00 (0001ms, 0610ms total)
T1EE4 000:922 JLINK_ExecCommand("Device = nRF51822_xxAA", ...)Device "NRF51822_XXAA" selected (257 KB flash, 16 KB RAM).  returns 0x00 (0004ms, 0616ms total)
T1EE4 000:927 JLINK_ExecCommand("DisableConnectionTimeout", ...)  returns 0x01 (0000ms, 0616ms total)
T1EE4 000:927 JLINK_GetHardwareVersion()  returns 0x11170 (0001ms, 0617ms total)
T1EE4 000:928 JLINK_GetDLLVersion()  returns 48601 (0000ms, 0617ms total)
T1EE4 000:928 JLINK_GetFirmwareString(...) (0001ms, 0618ms total)
T1EE4 000:933 JLINK_GetDLLVersion()  returns 48601 (0000ms, 0618ms total)
T1EE4 000:933 JLINK_GetCompileDateTime() (0001ms, 0619ms total)
T1EE4 000:938 JLINK_GetFirmwareString(...) (0000ms, 0619ms total)
T1EE4 000:944 JLINK_GetHardwareVersion()  returns 0x11170 (0000ms, 0619ms total)
T1EE4 000:951 JLINK_TIF_Select(JLINKARM_TIF_SWD)  returns 0x00 (0022ms, 0641ms total)
T1EE4 000:973 JLINK_SetSpeed(2000) (0001ms, 0642ms total)
T1EE4 000:974 JLINK_GetId() >0x108 TIF>Found SWD-DP with ID 0x0BB11477 >0x35 TIF> >0x0D TIF> >0x28 TIF> >0x0D TIF> >0x28 TIF> >0x35 TIF> >0x0D TIF> >0x28 TIF> >0x35 TIF> >0x35 TIF> >0x35 TIF> >0x0D TIF> >0x28 TIF> >0x0D TIF> >0x28 TIF> >0x0D TIF> >0x28 TIF> >0x35 TIF> >0x35 TIF> >0x35 TIF> >0x0D TIF> >0x28 TIF> >0x0D TIF> >0x28 TIF> >0x35 TIF> >0x0D TIF> >0x28 TIF> >0x0D TIF> >0x28 TIF> >0x0D TIF> >0x28 TIF> >0x35 TIF> >0x35 TIF> >0x0D TIF> >0x28 TIF> >0x35 TIF> >0x35 TIF>
Found Cortex-M0 r0p0, Little endian. -- CPU_WriteMem(4 bytes @ 0xE0002000) -- CPU_ReadMem(4 bytes @ 0xE000EDF0) -- CPU_ReadMem(4 bytes @ 0xE0002000)FPUnit: 4 code (BP) slots and 0 literal slots -- CPU_ReadMem(4 bytes @ 0xE000EDFC) -- CPU_ReadMem(4 bytes @ 0xE0001000) -- CPU_WriteMem(4 bytes @ 0xE0001000) -- CPU_ReadMem(4 bytes @ 0xE00FF018) >0x35 TIF>  returns 0x0BB11477 (0087ms, 0729ms total)
T1EE4 001:061 JLINK_GetDeviceFamily()  returns 6 (0000ms, 0729ms total)
T1EE4 001:061 JLINK_ReadMem (0xE00FFFF0, 0x0010 Bytes, ...) -- CPU is running -- CPU_ReadMem(16 bytes @ 0xE00FFFF0) - Data: 0D 00 00 00 10 00 00 00 05 00 00 00 B1 00 00 00  returns 0x00 (0003ms, 0732ms total)
T1EE4 001:064 JLINK_ReadMem (0xE00FFFD0, 0x0020 Bytes, ...) -- CPU is running -- CPU_ReadMem(32 bytes @ 0xE00FFFD0) - Data: 04 00 00 00 00 00 00 00 00 00 00 00 00 00 00 00 ...  returns 0x00 (0003ms, 0735ms total)
T1EE4 001:067 JLINK_ReadMem (0xE00FF000, 0x0018 Bytes, ...) -- CPU is running -- CPU_ReadMem(24 bytes @ 0xE00FF000) - Data: 03 F0 F0 FF 03 20 F0 FF 03 30 F0 FF 00 00 00 00 ...  returns 0x00 (0003ms, 0738ms total)
T1EE4 001:070 JLINK_ReadMemU32(0xE000ED00, 0x0001 Items, ...) -- CPU is running -- CPU_ReadMem(4 bytes @ 0xE000ED00) - Data: 00 C2 0C 41  returns 0x01 (0001ms, 0739ms total)
T1EE4 001:071 JLINK_SetResetType(JLINKARM_RESET_TYPE_NORMAL)  returns JLINKARM_RESET_TYPE_NORMAL (0000ms, 0739ms total)
T1EE4 001:073 JLINK_Reset() -- CPU is running -- CPU_WriteMem(4 bytes @ 0xE000EDF0) -- CPU is running -- CPU_WriteMem(4 bytes @ 0xE000EDFC) >0x35 TIF> -- CPU is running -- CPU_WriteMem(4 bytes @ 0xE000ED0C) -- CPU is running -- CPU_ReadMem(4 bytes @ 0xE000EDF0) -- CPU is running -- CPU_ReadMem(4 bytes @ 0xE000EDF0) -- CPU is running -- CPU_WriteMem(4 bytes @ 0xE000EDF0) -- CPU is running -- CPU_WriteMem(4 bytes @ 0xE000EDFC) -- CPU is running -- CPU_ReadMem(4 bytes @ 0xE000EDF0)
 -- CPU_WriteMem(4 bytes @ 0xE0002000) -- CPU_ReadMem(4 bytes @ 0xE000EDFC) -- CPU_ReadMem(4 bytes @ 0xE0001000) -- CPU_WriteMem(4 bytes @ 0xE0001000) (0037ms, 0778ms total)
T1EE4 001:110 JLINK_ReadReg(R15 (PC))  returns 0x00001468 (0000ms, 0778ms total)
T1EE4 001:110 JLINK_ReadReg(XPSR)  returns 0xC1000000 (0001ms, 0779ms total)
T1EE4 001:111 JLINK_Halt()  returns 0x00 (0000ms, 0779ms total)
T1EE4 001:111 JLINK_IsHalted()  returns TRUE (0000ms, 0779ms total)
T1EE4 001:111 JLINK_ReadMemU32(0xE000EDF0, 0x0001 Items, ...) -- CPU_ReadMem(4 bytes @ 0xE000EDF0) - Data: 03 00 03 00  returns 0x01 (0002ms, 0781ms total)
T1EE4 001:113 JLINK_WriteU32(0xE000EDF0, 0xA05F0003) -- CPU_WriteMem(4 bytes @ 0xE000EDF0)  returns 0x00 (0002ms, 0783ms total)
T1EE4 001:115 JLINK_WriteU32(0xE000EDFC, 0x01000000) -- CPU_WriteMem(4 bytes @ 0xE000EDFC)  returns 0x00 (0001ms, 0784ms total)
T1EE4 001:116 JLINK_GetHWStatus(...)  returns 0x00 (0002ms, 0786ms total)
T1EE4 001:122 JLINK_GetNumBPUnits(Type = 0xFFFFFF00)  returns 0x04 (0000ms, 0786ms total)
T1EE4 001:122 JLINK_GetNumBPUnits(Type = 0xF0)  returns 0x2000 (0000ms, 0786ms total)
T1EE4 001:122 JLINK_GetNumWPUnits()  returns 0x02 (0001ms, 0787ms total)
T1EE4 001:123 JLINK_GetSpeed()  returns 0x7D0 (0000ms, 0787ms total)
T1EE4 001:123 JLINK_ReadMemU32(0xE000E004, 0x0001 Items, ...) -- CPU_ReadMem(4 bytes @ 0xE000E004) - Data: 00 00 00 00  returns 0x01 (0003ms, 0790ms total)
T1EE4 001:126 JLINK_ReadReg(R15 (PC))  returns 0x00001468 (0000ms, 0790ms total)
T1EE4 001:126 JLINK_ReadReg(XPSR)  returns 0xC1000000 (0001ms, 0791ms total)
T1EE4 001:197 JLINK_SetResetType(JLINKARM_RESET_TYPE_NORMAL)  returns JLINKARM_RESET_TYPE_NORMAL (0001ms, 0792ms total)
T1EE4 001:198 JLINK_Reset() -- CPU_WriteMem(4 bytes @ 0xE000EDF0) -- CPU_WriteMem(4 bytes @ 0xE000EDFC) >0x35 TIF> -- CPU_WriteMem(4 bytes @ 0xE000ED0C) -- CPU_ReadMem(4 bytes @ 0xE000EDF0) -- CPU_ReadMem(4 bytes @ 0xE000EDF0) -- CPU_WriteMem(4 bytes @ 0xE000EDF0) -- CPU_WriteMem(4 bytes @ 0xE000EDFC) -- CPU is running -- CPU_ReadMem(4 bytes @ 0xE000EDF0) -- CPU_WriteMem(4 bytes @ 0xE0002000) -- CPU_ReadMem(4 bytes @ 0xE000EDFC) -- CPU_ReadMem(4 bytes @ 0xE0001000) -- CPU_WriteMem(4 bytes @ 0xE0001000)
 (0040ms, 0832ms total)
T1EE4 001:238 JLINK_ReadReg(R15 (PC))  returns 0x00001468 (0000ms, 0832ms total)
T1EE4 001:238 JLINK_ReadReg(XPSR)  returns 0xC1000000 (0000ms, 0832ms total)
T1EE4 001:240 JLINK_ReadMem (0x00001468, 0x003C Bytes, ...) -- CPU_ReadMem(128 bytes @ 0x00001440) -- Updating C cache (128 bytes @ 0x00001440) -- Read from C cache (60 bytes @ 0x00001468) - Data: 0A 48 02 68 0F 21 0A 43 02 60 09 48 80 47 09 48 ...  returns 0x00 (0003ms, 0835ms total)
T1EE4 001:378 JLINK_ReadMem (0x40001000, 0x0020 Bytes, ...) -- CPU_ReadMem(32 bytes @ 0x40001000) - Data: 00 00 00 00 00 00 00 00 00 00 00 00 00 00 00 00 ...  returns 0x00 (0004ms, 0839ms total)
T1EE4 001:382 JLINK_ReadMem (0x40001020, 0x0004 Bytes, ...) -- CPU_ReadMem(4 bytes @ 0x40001020) - Data: 00 00 00 00  returns 0x00 (0003ms, 0842ms total)
T1EE4 001:385 JLINK_ReadMem (0x40001100, 0x001C Bytes, ...) -- CPU_ReadMem(28 bytes @ 0x40001100) - Data: 00 00 00 00 00 00 00 00 00 00 00 00 00 00 00 00 ...  returns 0x00 (0002ms, 0844ms total)
T1EE4 001:387 JLINK_ReadMem (0x4000111C, 0x0004 Bytes, ...) -- CPU_ReadMem(4 bytes @ 0x4000111C) - Data: 00 00 00 00  returns 0x00 (0002ms, 0846ms total)
T1EE4 001:390 JLINK_ReadMem (0x40001128, 0x0004 Bytes, ...) -- CPU_ReadMem(4 bytes @ 0x40001128) - Data: 00 00 00 00  returns 0x00 (0002ms, 0849ms total)
T1EE4 001:392 JLINK_ReadMem (0x40001200, 0x0004 Bytes, ...) -- CPU_ReadMem(4 bytes @ 0x40001200) - Data: 00 00 00 00  returns 0x00 (0002ms, 0851ms total)
T1EE4 001:394 JLINK_ReadMem (0x40001304, 0x0004 Bytes, ...) -- CPU_ReadMem(4 bytes @ 0x40001304) - Data: 00 00 00 00  returns 0x00 (0001ms, 0852ms total)
T1EE4 001:395 JLINK_ReadMem (0x40001308, 0x0004 Bytes, ...) -- CPU_ReadMem(4 bytes @ 0x40001308) - Data: 00 00 00 00  returns 0x00 (0002ms, 0854ms total)
T1EE4 001:397 JLINK_ReadMem (0x40001400, 0x0010 Bytes, ...) -- CPU_ReadMem(16 bytes @ 0x40001400) - Data: 00 00 00 00 00 00 00 00 00 00 00 00 00 00 00 00  returns 0x00 (0002ms, 0856ms total)
T1EE4 001:399 JLINK_ReadMem (0x40001410, 0x0004 Bytes, ...) -- CPU_ReadMem(4 bytes @ 0x40001410) - Data: 00 00 00 00  returns 0x00 (0002ms, 0858ms total)
T1EE4 001:401 JLINK_ReadMem (0x40001504, 0x0044 Bytes, ...) -- CPU_ReadMem(68 bytes @ 0x40001504) - Data: 00 00 00 00 02 00 00 00 00 00 00 00 00 00 00 00 ...  returns 0x00 (0003ms, 0861ms total)
T1EE4 001:404 JLINK_ReadMem (0x40001548, 0x0004 Bytes, ...) -- CPU_ReadMem(4 bytes @ 0x40001548) - Data: 00 00 00 00  returns 0x00 (0001ms, 0862ms total)
T1EE4 001:405 JLINK_ReadMem (0x40001550, 0x0004 Bytes, ...) -- CPU_ReadMem(4 bytes @ 0x40001550) - Data: 00 00 00 00  returns 0x00 (0002ms, 0864ms total)
T1EE4 001:407 JLINK_ReadMem (0x40001554, 0x0004 Bytes, ...) -- CPU_ReadMem(4 bytes @ 0x40001554) - Data: 40 00 00 00  returns 0x00 (0003ms, 0867ms total)
T1EE4 001:410 JLINK_ReadMem (0x40001560, 0x0004 Bytes, ...) -- CPU_ReadMem(4 bytes @ 0x40001560) - Data: 00 00 00 00  returns 0x00 (0000ms, 0867ms total)
T1EE4 001:411 JLINK_ReadMem (0x40001600, 0x0040 Bytes, ...) -- CPU_ReadMem(64 bytes @ 0x40001600) - Data: 00 00 00 00 00 00 00 00 00 00 00 00 00 00 00 00 ...  returns 0x00 (0002ms, 0870ms total)
T1EE4 001:413 JLINK_ReadMem (0x40001640, 0x0004 Bytes, ...) -- CPU_ReadMem(4 bytes @ 0x40001640) - Data: 00 00 00 00  returns 0x00 (0002ms, 0872ms total)
T1EE4 001:415 JLINK_ReadMem (0x40001724, 0x0010 Bytes, ...) -- CPU_ReadMem(16 bytes @ 0x40001724) - Data: 00 00 00 00 00 00 00 00 00 00 00 00 00 00 00 00  returns 0x00 (0002ms, 0874ms total)
T1EE4 001:417 JLINK_ReadMem (0x40001734, 0x0004 Bytes, ...) -- CPU_ReadMem(4 bytes @ 0x40001734) - Data: 00 00 00 00  returns 0x00 (0001ms, 0875ms total)
T1EE4 001:418 JLINK_ReadMem (0x40001FFC, 0x0004 Bytes, ...) -- CPU_ReadMem(4 bytes @ 0x40001FFC) - Data: 01 00 00 00  returns 0x00 (0002ms, 0877ms total)
T1EE4 001:420 JLINK_ReadMem (0x40001508, 0x0004 Bytes, ...) -- CPU_ReadMem(4 bytes @ 0x40001508) - Data: 02 00 00 00  returns 0x00 (0001ms, 0878ms total)
T1EE4 001:422 JLINK_ReadMem (0x40001508, 0x0004 Bytes, ...) -- CPU_ReadMem(4 bytes @ 0x40001508) - Data: 02 00 00 00  returns 0x00 (0002ms, 0880ms total)
T1EE4 001:424 JLINK_ReadMem (0x40001554, 0x0004 Bytes, ...) -- CPU_ReadMem(4 bytes @ 0x40001554) - Data: 40 00 00 00  returns 0x00 (0002ms, 0882ms total)
T1EE4 001:426 JLINK_ReadMem (0x40001554, 0x0004 Bytes, ...) -- CPU_ReadMem(4 bytes @ 0x40001554) - Data: 40 00 00 00  returns 0x00 (0002ms, 0884ms total)
T1EE4 001:428 JLINK_ReadMem (0x40001FFC, 0x0004 Bytes, ...) -- CPU_ReadMem(4 bytes @ 0x40001FFC) - Data: 01 00 00 00  returns 0x00 (0001ms, 0885ms total)
T1EE4 001:430 JLINK_ReadMem (0x40001FFC, 0x0004 Bytes, ...) -- CPU_ReadMem(4 bytes @ 0x40001FFC) - Data: 01 00 00 00  returns 0x00 (0001ms, 0886ms total)
T1EE4 001:497 JLINK_ReadMem (0x40008000, 0x0010 Bytes, ...) -- CPU_ReadMem(16 bytes @ 0x40008000) - Data: 00 00 00 00 00 00 00 00 00 00 00 00 00 00 00 00  returns 0x00 (0007ms, 0893ms total)
T1EE4 001:504 JLINK_ReadMem (0x40008010, 0x0004 Bytes, ...) -- CPU_ReadMem(4 bytes @ 0x40008010) - Data: 00 00 00 00  returns 0x00 (0001ms, 0894ms total)
T1EE4 001:505 JLINK_ReadMem (0x40008040, 0x000C Bytes, ...) -- CPU_ReadMem(12 bytes @ 0x40008040) - Data: 00 00 00 00 00 00 00 00 00 00 00 00  returns 0x00 (0002ms, 0896ms total)
T1EE4 001:507 JLINK_ReadMem (0x4000804C, 0x0004 Bytes, ...) -- CPU_ReadMem(4 bytes @ 0x4000804C) - Data: 00 00 00 00  returns 0x00 (0002ms, 0898ms total)
T1EE4 001:509 JLINK_ReadMem (0x40008140, 0x000C Bytes, ...) -- CPU_ReadMem(12 bytes @ 0x40008140) - Data: 00 00 00 00 00 00 00 00 00 00 00 00  returns 0x00 (0002ms, 0900ms total)
T1EE4 001:511 JLINK_ReadMem (0x4000814C, 0x0004 Bytes, ...) -- CPU_ReadMem(4 bytes @ 0x4000814C) - Data: 00 00 00 00  returns 0x00 (0002ms, 0902ms total)
T1EE4 001:513 JLINK_ReadMem (0x40008200, 0x0004 Bytes, ...) -- CPU_ReadMem(4 bytes @ 0x40008200) - Data: 00 00 00 00  returns 0x00 (0002ms, 0904ms total)
T1EE4 001:515 JLINK_ReadMem (0x40008304, 0x0004 Bytes, ...) -- CPU_ReadMem(4 bytes @ 0x40008304) - Data: 00 00 00 00  returns 0x00 (0002ms, 0906ms total)
T1EE4 001:517 JLINK_ReadMem (0x40008308, 0x0004 Bytes, ...) -- CPU_ReadMem(4 bytes @ 0x40008308) - Data: 00 00 00 00  returns 0x00 (0001ms, 0907ms total)
T1EE4 001:518 JLINK_ReadMem (0x40008504, 0x0004 Bytes, ...) -- CPU_ReadMem(4 bytes @ 0x40008504) - Data: 00 00 00 00  returns 0x00 (0002ms, 0909ms total)
T1EE4 001:520 JLINK_ReadMem (0x40008508, 0x0004 Bytes, ...) -- CPU_ReadMem(4 bytes @ 0x40008508) - Data: 00 00 00 00  returns 0x00 (0002ms, 0911ms total)
T1EE4 001:522 JLINK_ReadMem (0x40008510, 0x0004 Bytes, ...) -- CPU_ReadMem(4 bytes @ 0x40008510) - Data: 04 00 00 00  returns 0x00 (0002ms, 0913ms total)
T1EE4 001:524 JLINK_ReadMem (0x40008540, 0x000C Bytes, ...) -- CPU_ReadMem(12 bytes @ 0x40008540) - Data: 00 00 00 00 00 00 00 00 00 00 00 00  returns 0x00 (0002ms, 0915ms total)
T1EE4 001:526 JLINK_ReadMem (0x4000854C, 0x0004 Bytes, ...) -- CPU_ReadMem(4 bytes @ 0x4000854C) - Data: 00 00 00 00  returns 0x00 (0003ms, 0918ms total)
T1EE4 001:529 JLINK_ReadMem (0x40008FFC, 0x0004 Bytes, ...) -- CPU_ReadMem(4 bytes @ 0x40008FFC) - Data: 01 00 00 00  returns 0x00 (0001ms, 0919ms total)
T1EE4 001:530 JLINK_ReadMem (0x40008510, 0x0004 Bytes, ...) -- CPU_ReadMem(4 bytes @ 0x40008510) - Data: 04 00 00 00  returns 0x00 (0003ms, 0922ms total)
T1EE4 001:533 JLINK_ReadMem (0x40008510, 0x0004 Bytes, ...) -- CPU_ReadMem(4 bytes @ 0x40008510) - Data: 04 00 00 00  returns 0x00 (0002ms, 0924ms total)
T1EE4 001:535 JLINK_ReadMem (0x40008FFC, 0x0004 Bytes, ...) -- CPU_ReadMem(4 bytes @ 0x40008FFC) - Data: 01 00 00 00  returns 0x00 (0000ms, 0924ms total)
T1EE4 001:536 JLINK_ReadMem (0x40008FFC, 0x0004 Bytes, ...) -- CPU_ReadMem(4 bytes @ 0x40008FFC) - Data: 01 00 00 00  returns 0x00 (0001ms, 0925ms total)
T1EE4 003:352 JLINK_ReadMem (0x2000005C, 0x0001 Bytes, ...) -- CPU_ReadMem(64 bytes @ 0x20000040) -- Updating C cache (64 bytes @ 0x20000040) -- Read from C cache (1 bytes @ 0x2000005C) - Data: 00  returns 0x00 (0021ms, 0946ms total)
T2D90 003:401 JLINK_SetBPEx(Addr = 0x000001A4, Type = 0xFFFFFFF2)  returns 0x00000001 (0000ms, 0946ms total)
T2D90 003:401 JLINK_Go() -- CPU_WriteMem(4 bytes @ 0xE0002000) -- CPU_WriteMem(4 bytes @ 0xE0002008) -- CPU_WriteMem(4 bytes @ 0xE000200C) -- CPU_WriteMem(4 bytes @ 0xE0002010) -- CPU_WriteMem(4 bytes @ 0xE0002014) -- CPU_WriteMem(4 bytes @ 0xE0001004) (0017ms, 0963ms total)
T2D90 003:519 JLINK_IsHalted()  returns TRUE (0021ms, 0984ms total)
T2D90 003:540 JLINK_Halt()  returns 0x00 (0000ms, 0963ms total)
T2D90 003:541 JLINK_IsHalted()  returns TRUE (0000ms, 0964ms total)
T2D90 003:541 JLINK_IsHalted()  returns TRUE (0000ms, 0964ms total)
T2D90 003:541 JLINK_IsHalted()  returns TRUE (0000ms, 0964ms total)
T2D90 003:541 JLINK_ReadReg(R15 (PC))  returns 0x000001A4 (0000ms, 0964ms total)
T2D90 003:541 JLINK_ReadReg(XPSR)  returns 0x01000000 (0001ms, 0965ms total)
T2D90 003:542 JLINK_ClrBPEx(BPHandle = 0x00000001)  returns 0x00 (0000ms, 0965ms total)
T2D90 003:542 JLINK_ReadMemU32(0xE000ED30, 0x0001 Items, ...) -- CPU_ReadMem(4 bytes @ 0xE000ED30) - Data: 03 00 00 00  returns 0x01 (0002ms, 0967ms total)
T2D90 003:544 JLINK_ReadMemU32(0xE0001028, 0x0001 Items, ...) -- CPU_ReadMem(4 bytes @ 0xE0001028) - Data: 00 00 00 00  returns 0x01 (0002ms, 0969ms total)
T2D90 003:546 JLINK_ReadMemU32(0xE0001038, 0x0001 Items, ...) -- CPU_ReadMem(4 bytes @ 0xE0001038) - Data: 00 00 00 00  returns 0x01 (0002ms, 0971ms total)
T2D90 003:548 JLINK_ReadReg(R0)  returns 0x200002D8 (0000ms, 0971ms total)
T2D90 003:548 JLINK_ReadReg(R1)  returns 0x20000AD8 (0000ms, 0971ms total)
T2D90 003:548 JLINK_ReadReg(R2)  returns 0x20000AD8 (0001ms, 0972ms total)
T2D90 003:549 JLINK_ReadReg(R3)  returns 0x20000AD8 (0000ms, 0972ms total)
T2D90 003:549 JLINK_ReadReg(R4)  returns 0x000018EC (0000ms, 0972ms total)
T2D90 003:549 JLINK_ReadReg(R5)  returns 0x20000278 (0001ms, 0973ms total)
T2D90 003:550 JLINK_ReadReg(R6)  returns 0x00000000 (0000ms, 0973ms total)
T2D90 003:550 JLINK_ReadReg(R7)  returns 0x00000000 (0000ms, 0973ms total)
T2D90 003:550 JLINK_ReadReg(R8)  returns 0xFFFFFFFF (0000ms, 0973ms total)
T2D90 003:551 JLINK_ReadReg(R9)  returns 0xFFFFFFFF (0000ms, 0974ms total)
T2D90 003:551 JLINK_ReadReg(R10)  returns 0x000018EC (0000ms, 0974ms total)
T2D90 003:551 JLINK_ReadReg(R11)  returns 0x000018EC (0001ms, 0975ms total)
T2D90 003:552 JLINK_ReadReg(R12)  returns 0xFFFFFFFF (0000ms, 0975ms total)
T2D90 003:552 JLINK_ReadReg(R13 (SP))  returns 0x200012D8 (0001ms, 0976ms total)
T2D90 003:553 JLINK_ReadReg(R14)  returns 0x0000013B (0000ms, 0976ms total)
T2D90 003:553 JLINK_ReadReg(R15 (PC))  returns 0x000001A4 (0000ms, 0976ms total)
T2D90 003:553 JLINK_ReadReg(XPSR)  returns 0x01000000 (0000ms, 0976ms total)
T2D90 003:553 JLINK_ReadReg(MSP)  returns 0x200012D8 (0000ms, 0976ms total)
T2D90 003:554 JLINK_ReadReg(PSP)  returns 0xFFFFFFFC (0000ms, 0977ms total)
T2D90 003:554 JLINK_ReadReg(CFBP)  returns 0x00000000 (0000ms, 0977ms total)
T1EE4 003:558 JLINK_ReadMem (0x40008000, 0x0010 Bytes, ...) -- CPU_ReadMem(16 bytes @ 0x40008000) - Data: 00 00 00 00 00 00 00 00 00 00 00 00 00 00 00 00  returns 0x00 (0003ms, 0980ms total)
T1EE4 003:561 JLINK_ReadMem (0x40008010, 0x0004 Bytes, ...) -- CPU_ReadMem(4 bytes @ 0x40008010) - Data: 00 00 00 00  returns 0x00 (0001ms, 0981ms total)
T1EE4 003:562 JLINK_ReadMem (0x40008040, 0x000C Bytes, ...) -- CPU_ReadMem(12 bytes @ 0x40008040) - Data: 00 00 00 00 00 00 00 00 00 00 00 00  returns 0x00 (0002ms, 0983ms total)
T1EE4 003:564 JLINK_ReadMem (0x4000804C, 0x0004 Bytes, ...) -- CPU_ReadMem(4 bytes @ 0x4000804C) - Data: 00 00 00 00  returns 0x00 (0002ms, 0985ms total)
T1EE4 003:566 JLINK_ReadMem (0x40008140, 0x000C Bytes, ...) -- CPU_ReadMem(12 bytes @ 0x40008140) - Data: 00 00 00 00 00 00 00 00 00 00 00 00  returns 0x00 (0002ms, 0987ms total)
T1EE4 003:568 JLINK_ReadMem (0x4000814C, 0x0004 Bytes, ...) -- CPU_ReadMem(4 bytes @ 0x4000814C) - Data: 00 00 00 00  returns 0x00 (0002ms, 0989ms total)
T1EE4 003:570 JLINK_ReadMem (0x40008200, 0x0004 Bytes, ...) -- CPU_ReadMem(4 bytes @ 0x40008200) - Data: 00 00 00 00  returns 0x00 (0003ms, 0992ms total)
T1EE4 003:573 JLINK_ReadMem (0x40008304, 0x0004 Bytes, ...) -- CPU_ReadMem(4 bytes @ 0x40008304) - Data: 00 00 00 00  returns 0x00 (0002ms, 0994ms total)
T1EE4 003:575 JLINK_ReadMem (0x40008308, 0x0004 Bytes, ...) -- CPU_ReadMem(4 bytes @ 0x40008308) - Data: 00 00 00 00  returns 0x00 (0002ms, 0996ms total)
T1EE4 003:577 JLINK_ReadMem (0x40008504, 0x0004 Bytes, ...) -- CPU_ReadMem(4 bytes @ 0x40008504) - Data: 00 00 00 00  returns 0x00 (0002ms, 0998ms total)
T1EE4 003:579 JLINK_ReadMem (0x40008508, 0x0004 Bytes, ...) -- CPU_ReadMem(4 bytes @ 0x40008508) - Data: 00 00 00 00  returns 0x00 (0002ms, 1000ms total)
T1EE4 003:581 JLINK_ReadMem (0x40008510, 0x0004 Bytes, ...) -- CPU_ReadMem(4 bytes @ 0x40008510) - Data: 04 00 00 00  returns 0x00 (0002ms, 1002ms total)
T1EE4 003:583 JLINK_ReadMem (0x40008540, 0x000C Bytes, ...) -- CPU_ReadMem(12 bytes @ 0x40008540) - Data: 00 00 00 00 00 00 00 00 00 00 00 00  returns 0x00 (0001ms, 1003ms total)
T1EE4 003:584 JLINK_ReadMem (0x4000854C, 0x0004 Bytes, ...) -- CPU_ReadMem(4 bytes @ 0x4000854C) - Data: 00 00 00 00  returns 0x00 (0003ms, 1006ms total)
T1EE4 003:587 JLINK_ReadMem (0x40008FFC, 0x0004 Bytes, ...) -- CPU_ReadMem(4 bytes @ 0x40008FFC) - Data: 01 00 00 00  returns 0x00 (0002ms, 1008ms total)
T1EE4 003:590 JLINK_ReadMem (0x40001000, 0x0020 Bytes, ...) -- CPU_ReadMem(32 bytes @ 0x40001000) - Data: 00 00 00 00 00 00 00 00 00 00 00 00 00 00 00 00 ...  returns 0x00 (0002ms, 1011ms total)
T1EE4 003:592 JLINK_ReadMem (0x40001020, 0x0004 Bytes, ...) -- CPU_ReadMem(4 bytes @ 0x40001020) - Data: 00 00 00 00  returns 0x00 (0001ms, 1012ms total)
T1EE4 003:594 JLINK_ReadMem (0x40001100, 0x001C Bytes, ...) -- CPU_ReadMem(28 bytes @ 0x40001100) - Data: 00 00 00 00 00 00 00 00 00 00 00 00 00 00 00 00 ...  returns 0x00 (0002ms, 1015ms total)
T1EE4 003:596 JLINK_ReadMem (0x4000111C, 0x0004 Bytes, ...) -- CPU_ReadMem(4 bytes @ 0x4000111C) - Data: 00 00 00 00  returns 0x00 (0001ms, 1016ms total)
T1EE4 003:597 JLINK_ReadMem (0x40001128, 0x0004 Bytes, ...) -- CPU_ReadMem(4 bytes @ 0x40001128) - Data: 00 00 00 00  returns 0x00 (0002ms, 1018ms total)
T1EE4 003:599 JLINK_ReadMem (0x40001200, 0x0004 Bytes, ...) -- CPU_ReadMem(4 bytes @ 0x40001200) - Data: 00 00 00 00  returns 0x00 (0002ms, 1020ms total)
T1EE4 003:601 JLINK_ReadMem (0x40001304, 0x0004 Bytes, ...) -- CPU_ReadMem(4 bytes @ 0x40001304) - Data: 00 00 00 00  returns 0x00 (0001ms, 1021ms total)
T1EE4 003:603 JLINK_ReadMem (0x40001308, 0x0004 Bytes, ...) -- CPU_ReadMem(4 bytes @ 0x40001308) - Data: 00 00 00 00  returns 0x00 (0001ms, 1023ms total)
T1EE4 003:604 JLINK_ReadMem (0x40001400, 0x0010 Bytes, ...) -- CPU_ReadMem(16 bytes @ 0x40001400) - Data: 00 00 00 00 00 00 00 00 00 00 00 00 00 00 00 00  returns 0x00 (0003ms, 1026ms total)
T1EE4 003:607 JLINK_ReadMem (0x40001410, 0x0004 Bytes, ...) -- CPU_ReadMem(4 bytes @ 0x40001410) - Data: 00 00 00 00  returns 0x00 (0002ms, 1028ms total)
T1EE4 003:609 JLINK_ReadMem (0x40001504, 0x0044 Bytes, ...) -- CPU_ReadMem(68 bytes @ 0x40001504) - Data: 00 00 00 00 02 00 00 00 00 00 00 00 00 00 00 00 ...  returns 0x00 (0002ms, 1030ms total)
T1EE4 003:611 JLINK_ReadMem (0x40001548, 0x0004 Bytes, ...) -- CPU_ReadMem(4 bytes @ 0x40001548) - Data: 00 00 00 00  returns 0x00 (0002ms, 1032ms total)
T1EE4 003:613 JLINK_ReadMem (0x40001550, 0x0004 Bytes, ...) -- CPU_ReadMem(4 bytes @ 0x40001550) - Data: 00 00 00 00  returns 0x00 (0002ms, 1034ms total)
T1EE4 003:615 JLINK_ReadMem (0x40001554, 0x0004 Bytes, ...) -- CPU_ReadMem(4 bytes @ 0x40001554) - Data: 40 00 00 00  returns 0x00 (0002ms, 1036ms total)
T1EE4 003:617 JLINK_ReadMem (0x40001560, 0x0004 Bytes, ...) -- CPU_ReadMem(4 bytes @ 0x40001560) - Data: 00 00 00 00  returns 0x00 (0001ms, 1037ms total)
T1EE4 003:618 JLINK_ReadMem (0x40001600, 0x0040 Bytes, ...) -- CPU_ReadMem(64 bytes @ 0x40001600) - Data: 00 00 00 00 00 00 00 00 00 00 00 00 00 00 00 00 ...  returns 0x00 (0002ms, 1039ms total)
T1EE4 003:620 JLINK_ReadMem (0x40001640, 0x0004 Bytes, ...) -- CPU_ReadMem(4 bytes @ 0x40001640) - Data: 00 00 00 00  returns 0x00 (0001ms, 1040ms total)
T1EE4 003:622 JLINK_ReadMem (0x40001724, 0x0010 Bytes, ...) -- CPU_ReadMem(16 bytes @ 0x40001724) - Data: 00 00 00 00 00 00 00 00 00 00 00 00 00 00 00 00  returns 0x00 (0002ms, 1043ms total)
T1EE4 003:624 JLINK_ReadMem (0x40001734, 0x0004 Bytes, ...) -- CPU_ReadMem(4 bytes @ 0x40001734) - Data: 00 00 00 00  returns 0x00 (0002ms, 1045ms total)
T1EE4 003:626 JLINK_ReadMem (0x40001FFC, 0x0004 Bytes, ...) -- CPU_ReadMem(4 bytes @ 0x40001FFC) - Data: 01 00 00 00  returns 0x00 (0002ms, 1047ms total)
T1EE4 003:628 JLINK_ReadMem (0x000001A4, 0x003C Bytes, ...) -- CPU_ReadMem(128 bytes @ 0x00000180) -- Updating C cache (128 bytes @ 0x00000180) -- Read from C cache (60 bytes @ 0x000001A4) - Data: 08 B5 0F 49 00 20 08 60 01 24 8A 05 14 60 0A 68 ...  returns 0x00 (0003ms, 1050ms total)
T1EE4 003:647 JLINK_ReadMem (0x000001E0, 0x003C Bytes, ...) -- CPU_ReadMem(64 bytes @ 0x00000200) -- Updating C cache (64 bytes @ 0x00000200) -- Read from C cache (60 bytes @ 0x000001E0) - Data: FE E7 00 00 00 01 00 40 00 07 00 50 36 48 81 68 ...  returns 0x00 (0003ms, 1053ms total)
T2D90 004:694 JLINK_Go() -- CPU_WriteMem(4 bytes @ 0xE0002008) (0020ms, 1073ms total)
T2D90 004:815 JLINK_IsHalted()  returns FALSE (0019ms, 1092ms total)
T2D90 004:936 JLINK_IsHalted()  returns FALSE (0018ms, 1091ms total)
T2D90 005:056 JLINK_IsHalted()  returns FALSE (0021ms, 1095ms total)
T2D90 005:177 JLINK_IsHalted()  returns FALSE (0006ms, 1080ms total)
T1EE4 005:286 JLINK_ReadMem (0x40008000, 0x0010 Bytes, ...) -- CPU is running -- CPU_ReadMem(16 bytes @ 0x40008000) - Data: 00 00 00 00 00 00 00 00 00 00 00 00 00 00 00 00  returns 0x00 (0018ms, 1092ms total)
T1EE4 005:304 JLINK_ReadMem (0x40008010, 0x0004 Bytes, ...) -- CPU is running -- CPU_ReadMem(4 bytes @ 0x40008010) - Data: 00 00 00 00  returns 0x00 (0001ms, 1093ms total)
T1EE4 005:306 JLINK_ReadMem (0x40008040, 0x000C Bytes, ...) -- CPU is running -- CPU_ReadMem(12 bytes @ 0x40008040) - Data: 00 00 00 00 00 00 00 00 00 00 00 00  returns 0x00 (0003ms, 1097ms total)
T1EE4 005:309 JLINK_ReadMem (0x4000804C, 0x0004 Bytes, ...) -- CPU is running -- CPU_ReadMem(4 bytes @ 0x4000804C) - Data: 00 00 00 00  returns 0x00 (0002ms, 1099ms total)
T1EE4 005:311 JLINK_ReadMem (0x40008140, 0x000C Bytes, ...) -- CPU is running -- CPU_ReadMem(12 bytes @ 0x40008140) - Data: 00 00 00 00 00 00 00 00 00 00 00 00  returns 0x00 (0002ms, 1101ms total)
T1EE4 005:313 JLINK_ReadMem (0x4000814C, 0x0004 Bytes, ...) -- CPU is running -- CPU_ReadMem(4 bytes @ 0x4000814C) - Data: 00 00 00 00  returns 0x00 (0002ms, 1103ms total)
T1EE4 005:315 JLINK_ReadMem (0x40008200, 0x0004 Bytes, ...) -- CPU is running -- CPU_ReadMem(4 bytes @ 0x40008200) - Data: 00 00 00 00  returns 0x00 (0001ms, 1104ms total)
T1EE4 005:316 JLINK_ReadMem (0x40008304, 0x0004 Bytes, ...) -- CPU is running -- CPU_ReadMem(4 bytes @ 0x40008304) - Data: 00 00 0F 00  returns 0x00 (0003ms, 1107ms total)
T1EE4 005:319 JLINK_ReadMem (0x40008308, 0x0004 Bytes, ...) -- CPU is running -- CPU_ReadMem(4 bytes @ 0x40008308) - Data: 00 00 0F 00  returns 0x00 (0003ms, 1110ms total)
T1EE4 005:322 JLINK_ReadMem (0x40008504, 0x0004 Bytes, ...) -- CPU is running -- CPU_ReadMem(4 bytes @ 0x40008504) - Data: 00 00 00 00  returns 0x00 (0002ms, 1112ms total)
T1EE4 005:324 JLINK_ReadMem (0x40008508, 0x0004 Bytes, ...) -- CPU is running -- CPU_ReadMem(4 bytes @ 0x40008508) - Data: 00 00 00 00  returns 0x00 (0001ms, 1113ms total)
T1EE4 005:326 JLINK_ReadMem (0x40008510, 0x0004 Bytes, ...) -- CPU is running -- CPU_ReadMem(4 bytes @ 0x40008510) - Data: 04 00 00 00  returns 0x00 (0001ms, 1115ms total)
T1EE4 005:327 JLINK_ReadMem (0x40008540, 0x000C Bytes, ...) -- CPU is running -- CPU_ReadMem(12 bytes @ 0x40008540) - Data: 50 B4 00 00 14 ED 00 00 5C B2 00 00  returns 0x00 (0001ms, 1116ms total)
T1EE4 005:328 JLINK_ReadMem (0x4000854C, 0x0004 Bytes, ...) -- CPU is running -- CPU_ReadMem(4 bytes @ 0x4000854C) - Data: 6A 86 00 00  returns 0x00 (0002ms, 1118ms total)
T1EE4 005:330 JLINK_ReadMem (0x40008FFC, 0x0004 Bytes, ...) -- CPU is running -- CPU_ReadMem(4 bytes @ 0x40008FFC) - Data: 01 00 00 00  returns 0x00 (0002ms, 1120ms total)
T1EE4 005:332 JLINK_ReadMem (0x40008304, 0x0004 Bytes, ...) -- CPU is running -- CPU_ReadMem(4 bytes @ 0x40008304) - Data: 00 00 0F 00  returns 0x00 (0002ms, 1122ms total)
T1EE4 005:334 JLINK_ReadMem (0x40008304, 0x0004 Bytes, ...) -- CPU is running -- CPU_ReadMem(4 bytes @ 0x40008304) - Data: 00 00 0F 00  returns 0x00 (0002ms, 1124ms total)
T1EE4 005:336 JLINK_ReadMem (0x40008304, 0x0004 Bytes, ...) -- CPU is running -- CPU_ReadMem(4 bytes @ 0x40008304) - Data: 00 00 0F 00  returns 0x00 (0001ms, 1125ms total)
T1EE4 005:338 JLINK_ReadMem (0x40008304, 0x0004 Bytes, ...) -- CPU is running -- CPU_ReadMem(4 bytes @ 0x40008304) - Data: 00 00 0F 00  returns 0x00 (0001ms, 1127ms total)
T1EE4 005:339 JLINK_ReadMem (0x40008304, 0x0004 Bytes, ...) -- CPU is running -- CPU_ReadMem(4 bytes @ 0x40008304) - Data: 00 00 0F 00  returns 0x00 (0002ms, 1129ms total)
T1EE4 005:341 JLINK_ReadMem (0x40008308, 0x0004 Bytes, ...) -- CPU is running -- CPU_ReadMem(4 bytes @ 0x40008308) - Data: 00 00 0F 00  returns 0x00 (0001ms, 1130ms total)
T1EE4 005:343 JLINK_ReadMem (0x40008308, 0x0004 Bytes, ...) -- CPU is running -- CPU_ReadMem(4 bytes @ 0x40008308) - Data: 00 00 0F 00  returns 0x00 (0002ms, 1132ms total)
T1EE4 005:345 JLINK_ReadMem (0x40008308, 0x0004 Bytes, ...) -- CPU is running -- CPU_ReadMem(4 bytes @ 0x40008308) - Data: 00 00 0F 00  returns 0x00 (0003ms, 1135ms total)
T1EE4 005:348 JLINK_ReadMem (0x40008308, 0x0004 Bytes, ...) -- CPU is running -- CPU_ReadMem(4 bytes @ 0x40008308) - Data: 00 00 0F 00  returns 0x00 (0001ms, 1136ms total)
T1EE4 005:349 JLINK_ReadMem (0x40008308, 0x0004 Bytes, ...) -- CPU is running -- CPU_ReadMem(4 bytes @ 0x40008308) - Data: 00 00 0F 00  returns 0x00 (0002ms, 1138ms total)
T1EE4 005:351 JLINK_ReadMem (0x40008540, 0x0004 Bytes, ...) -- CPU is running -- CPU_ReadMem(4 bytes @ 0x40008540) - Data: 50 B4 00 00  returns 0x00 (0002ms, 1140ms total)
T1EE4 005:353 JLINK_ReadMem (0x40008544, 0x0004 Bytes, ...) -- CPU is running -- CPU_ReadMem(4 bytes @ 0x40008544) - Data: 14 ED 00 00  returns 0x00 (0001ms, 1141ms total)
T1EE4 005:354 JLINK_ReadMem (0x40008548, 0x0004 Bytes, ...) -- CPU is running -- CPU_ReadMem(4 bytes @ 0x40008548) - Data: 5C B2 00 00  returns 0x00 (0003ms, 1144ms total)
T1EE4 005:357 JLINK_ReadMem (0x4000854C, 0x0004 Bytes, ...) -- CPU is running -- CPU_ReadMem(4 bytes @ 0x4000854C) - Data: 6A 86 00 00  returns 0x00 (0001ms, 1145ms total)
T1EE4 005:358 JLINK_ReadMem (0x40001000, 0x0020 Bytes, ...) -- CPU is running -- CPU_ReadMem(32 bytes @ 0x40001000) - Data: 00 00 00 00 00 00 00 00 00 00 00 00 00 00 00 00 ...  returns 0x00 (0002ms, 1147ms total)
T1EE4 005:360 JLINK_ReadMem (0x40001020, 0x0004 Bytes, ...) -- CPU is running -- CPU_ReadMem(4 bytes @ 0x40001020) - Data: 00 00 00 00  returns 0x00 (0002ms, 1149ms total)
T1EE4 005:362 JLINK_ReadMem (0x40001100, 0x001C Bytes, ...) -- CPU is running -- CPU_ReadMem(28 bytes @ 0x40001100) - Data: 00 00 00 00 00 00 00 00 00 00 00 00 00 00 00 00 ...  returns 0x00 (0003ms, 1152ms total)
T1EE4 005:365 JLINK_ReadMem (0x4000111C, 0x0004 Bytes, ...) -- CPU is running -- CPU_ReadMem(4 bytes @ 0x4000111C) - Data: 00 00 00 00  returns 0x00 (0002ms, 1154ms total)
T1EE4 005:367 JLINK_ReadMem (0x40001128, 0x0004 Bytes, ...) -- CPU is running -- CPU_ReadMem(4 bytes @ 0x40001128) - Data: 00 00 00 00  returns 0x00 (0001ms, 1155ms total)
T1EE4 005:368 JLINK_ReadMem (0x40001200, 0x0004 Bytes, ...) -- CPU is running -- CPU_ReadMem(4 bytes @ 0x40001200) - Data: 06 00 00 00  returns 0x00 (0001ms, 1156ms total)
T1EE4 005:369 JLINK_ReadMem (0x40001304, 0x0004 Bytes, ...) -- CPU is running -- CPU_ReadMem(4 bytes @ 0x40001304) - Data: 1F 00 00 00  returns 0x00 (0002ms, 1158ms total)
T1EE4 005:371 JLINK_ReadMem (0x40001308, 0x0004 Bytes, ...) -- CPU is running -- CPU_ReadMem(4 bytes @ 0x40001308) - Data: 1F 00 00 00  returns 0x00 (0002ms, 1160ms total)
T1EE4 005:373 JLINK_ReadMem (0x40001400, 0x0010 Bytes, ...) -- CPU is running -- CPU_ReadMem(16 bytes @ 0x40001400) - Data: 01 00 00 00 00 00 00 00 00 00 00 00 87 1C 49 00  returns 0x00 (0002ms, 1162ms total)
T1EE4 005:375 JLINK_ReadMem (0x40001410, 0x0004 Bytes, ...) -- CPU is running -- CPU_ReadMem(4 bytes @ 0x40001410) - Data: 00 00 00 00  returns 0x00 (0001ms, 1163ms total)
T1EE4 005:376 JLINK_ReadMem (0x40001504, 0x0044 Bytes, ...) -- CPU is running -- CPU_ReadMem(68 bytes @ 0x40001504) - Data: 7F 01 00 20 1A 00 00 00 00 00 00 00 03 00 00 00 ...  returns 0x00 (0004ms, 1167ms total)
T1EE4 005:380 JLINK_ReadMem (0x40001548, 0x0004 Bytes, ...) -- CPU is running -- CPU_ReadMem(4 bytes @ 0x40001548) - Data: 00 00 00 00  returns 0x00 (0001ms, 1168ms total)
T1EE4 005:381 JLINK_ReadMem (0x40001550, 0x0004 Bytes, ...) -- CPU is running -- CPU_ReadMem(4 bytes @ 0x40001550) - Data: 03 00 00 00  returns 0x00 (0002ms, 1170ms total)
T1EE4 005:383 JLINK_ReadMem (0x40001554, 0x0004 Bytes, ...) -- CPU is running -- CPU_ReadMem(4 bytes @ 0x40001554) - Data: 66 00 00 00  returns 0x00 (0002ms, 1172ms total)
T1EE4 005:385 JLINK_ReadMem (0x40001560, 0x0004 Bytes, ...) -- CPU is running -- CPU_ReadMem(4 bytes @ 0x40001560) - Data: 00 00 00 00  returns 0x00 (0001ms, 1173ms total)
T1EE4 005:386 JLINK_ReadMem (0x40001600, 0x0040 Bytes, ...) -- CPU is running -- CPU_ReadMem(64 bytes @ 0x40001600) - Data: 00 00 00 00 00 00 00 00 00 00 00 00 00 00 00 00 ...  returns 0x00 (0003ms, 1176ms total)
T1EE4 005:389 JLINK_ReadMem (0x40001640, 0x0004 Bytes, ...) -- CPU is running -- CPU_ReadMem(4 bytes @ 0x40001640) - Data: 00 00 00 00  returns 0x00 (0001ms, 1177ms total)
T1EE4 005:390 JLINK_ReadMem (0x40001724, 0x0010 Bytes, ...) -- CPU is running -- CPU_ReadMem(16 bytes @ 0x40001724) - Data: 00 00 00 00 00 00 00 00 00 00 00 00 00 00 00 00  returns 0x00 (0003ms, 1180ms total)
T1EE4 005:393 JLINK_ReadMem (0x40001734, 0x0004 Bytes, ...) -- CPU is running -- CPU_ReadMem(4 bytes @ 0x40001734) - Data: 00 00 00 00  returns 0x00 (0002ms, 1182ms total)
T1EE4 005:395 JLINK_ReadMem (0x40001FFC, 0x0004 Bytes, ...) -- CPU is running -- CPU_ReadMem(4 bytes @ 0x40001FFC) - Data: 01 00 00 00  returns 0x00 (0003ms, 1185ms total)
T1EE4 005:398 JLINK_ReadMem (0x40001118, 0x0004 Bytes, ...) -- CPU is running -- CPU_ReadMem(4 bytes @ 0x40001118) - Data: 01 00 00 00  returns 0x00 (0003ms, 1188ms total)
T1EE4 005:404 JLINK_ReadMem (0x40001200, 0x0004 Bytes, ...) -- CPU is running -- CPU_ReadMem(4 bytes @ 0x40001200) - Data: 06 00 00 00  returns 0x00 (0003ms, 1191ms total)
T1EE4 005:407 JLINK_ReadMem (0x40001200, 0x0004 Bytes, ...) -- CPU is running -- CPU_ReadMem(4 bytes @ 0x40001200) - Data: 0B 00 00 00  returns 0x00 (0003ms, 1194ms total)
T1EE4 005:410 JLINK_ReadMem (0x40001200, 0x0004 Bytes, ...) -- CPU is running -- CPU_ReadMem(4 bytes @ 0x40001200) - Data: 0B 00 00 00  returns 0x00 (0001ms, 1195ms total)
T1EE4 005:411 JLINK_ReadMem (0x40001200, 0x0004 Bytes, ...) -- CPU is running -- CPU_ReadMem(4 bytes @ 0x40001200) - Data: 0B 00 00 00  returns 0x00 (0002ms, 1197ms total)
T1EE4 005:413 JLINK_ReadMem (0x40001200, 0x0004 Bytes, ...) -- CPU is running -- CPU_ReadMem(4 bytes @ 0x40001200) - Data: 0B 00 00 00  returns 0x00 (0001ms, 1198ms total)
T1EE4 005:414 JLINK_ReadMem (0x40001200, 0x0004 Bytes, ...) -- CPU is running -- CPU_ReadMem(4 bytes @ 0x40001200) - Data: 0B 00 00 00  returns 0x00 (0002ms, 1200ms total)
T1EE4 005:416 JLINK_ReadMem (0x40001200, 0x0004 Bytes, ...) -- CPU is running -- CPU_ReadMem(4 bytes @ 0x40001200) - Data: 0B 00 00 00  returns 0x00 (0003ms, 1203ms total)
T1EE4 005:419 JLINK_ReadMem (0x40001200, 0x0004 Bytes, ...) -- CPU is running -- CPU_ReadMem(4 bytes @ 0x40001200) - Data: 0B 00 00 00  returns 0x00 (0001ms, 1204ms total)
T1EE4 005:420 JLINK_ReadMem (0x40001200, 0x0004 Bytes, ...) -- CPU is running -- CPU_ReadMem(4 bytes @ 0x40001200) - Data: 0B 00 00 00  returns 0x00 (0003ms, 1207ms total)
T1EE4 005:426 JLINK_ReadMem (0x40001304, 0x0004 Bytes, ...) -- CPU is running -- CPU_ReadMem(4 bytes @ 0x40001304) - Data: 1F 00 00 00  returns 0x00 (0003ms, 1210ms total)
T1EE4 005:429 JLINK_ReadMem (0x40001304, 0x0004 Bytes, ...) -- CPU is running -- CPU_ReadMem(4 bytes @ 0x40001304) - Data: 1F 00 00 00  returns 0x00 (0003ms, 1213ms total)
T1EE4 005:432 JLINK_ReadMem (0x40001304, 0x0004 Bytes, ...) -- CPU is running -- CPU_ReadMem(4 bytes @ 0x40001304) - Data: 1F 00 00 00  returns 0x00 (0003ms, 1216ms total)
T1EE4 005:435 JLINK_ReadMem (0x40001304, 0x0004 Bytes, ...) -- CPU is running -- CPU_ReadMem(4 bytes @ 0x40001304) - Data: 1F 00 00 00  returns 0x00 (0002ms, 1218ms total)
T1EE4 005:437 JLINK_ReadMem (0x40001304, 0x0004 Bytes, ...) -- CPU is running -- CPU_ReadMem(4 bytes @ 0x40001304) - Data: 1F 00 00 00  returns 0x00 (0001ms, 1219ms total)
T1EE4 005:438 JLINK_ReadMem (0x40001304, 0x0004 Bytes, ...) -- CPU is running -- CPU_ReadMem(4 bytes @ 0x40001304) - Data: 1F 00 00 00  returns 0x00 (0003ms, 1222ms total)
T1EE4 005:442 JLINK_ReadMem (0x40001304, 0x0004 Bytes, ...) -- CPU is running -- CPU_ReadMem(4 bytes @ 0x40001304) - Data: 1F 00 00 00  returns 0x00 (0002ms, 1224ms total)
T1EE4 005:446 JLINK_ReadMem (0x40001304, 0x0004 Bytes, ...) -- CPU is running -- CPU_ReadMem(4 bytes @ 0x40001304) - Data: 1F 00 00 00  returns 0x00 (0002ms, 1227ms total)
T1EE4 005:449 JLINK_ReadMem (0x40001304, 0x0004 Bytes, ...) -- CPU is running -- CPU_ReadMem(4 bytes @ 0x40001304) - Data: 1F 00 00 00  returns 0x00 (0002ms, 1229ms total)
T1EE4 005:451 JLINK_ReadMem (0x40001304, 0x0004 Bytes, ...) -- CPU is running -- CPU_ReadMem(4 bytes @ 0x40001304) - Data: 1F 00 00 00  returns 0x00 (0001ms, 1230ms total)
T1EE4 005:452 JLINK_ReadMem (0x40001308, 0x0004 Bytes, ...) -- CPU is running -- CPU_ReadMem(4 bytes @ 0x40001308) - Data: 1F 00 00 00  returns 0x00 (0001ms, 1231ms total)
T1EE4 005:453 JLINK_ReadMem (0x40001308, 0x0004 Bytes, ...) -- CPU is running -- CPU_ReadMem(4 bytes @ 0x40001308) - Data: 1F 00 00 00  returns 0x00 (0002ms, 1233ms total)
T1EE4 005:455 JLINK_ReadMem (0x40001308, 0x0004 Bytes, ...) -- CPU is running -- CPU_ReadMem(4 bytes @ 0x40001308) - Data: 1F 00 00 00  returns 0x00 (0002ms, 1235ms total)
T1EE4 005:457 JLINK_ReadMem (0x40001308, 0x0004 Bytes, ...) -- CPU is running -- CPU_ReadMem(4 bytes @ 0x40001308) - Data: 1F 00 00 00  returns 0x00 (0002ms, 1237ms total)
T1EE4 005:459 JLINK_ReadMem (0x40001308, 0x0004 Bytes, ...) -- CPU is running -- CPU_ReadMem(4 bytes @ 0x40001308) - Data: 1F 00 00 00  returns 0x00 (0001ms, 1238ms total)
T1EE4 005:460 JLINK_ReadMem (0x40001308, 0x0004 Bytes, ...) -- CPU is running -- CPU_ReadMem(4 bytes @ 0x40001308) - Data: 1F 00 00 00  returns 0x00 (0002ms, 1240ms total)
T1EE4 005:462 JLINK_ReadMem (0x40001308, 0x0004 Bytes, ...) -- CPU is running -- CPU_ReadMem(4 bytes @ 0x40001308) - Data: 1F 00 00 00  returns 0x00 (0004ms, 1244ms total)
T1EE4 005:466 JLINK_ReadMem (0x40001308, 0x0004 Bytes, ...) -- CPU is running -- CPU_ReadMem(4 bytes @ 0x40001308) - Data: 1F 00 00 00  returns 0x00 (0003ms, 1247ms total)
T1EE4 005:469 JLINK_ReadMem (0x40001308, 0x0004 Bytes, ...) -- CPU is running -- CPU_ReadMem(4 bytes @ 0x40001308) - Data: 1F 00 00 00  returns 0x00 (0002ms, 1249ms total)
T1EE4 005:471 JLINK_ReadMem (0x40001308, 0x0004 Bytes, ...) -- CPU is running -- CPU_ReadMem(4 bytes @ 0x40001308) - Data: 1F 00 00 00  returns 0x00 (0001ms, 1250ms total)
T1EE4 005:472 JLINK_ReadMem (0x40001400, 0x0004 Bytes, ...) -- CPU is running -- CPU_ReadMem(4 bytes @ 0x40001400) - Data: 01 00 00 00  returns 0x00 (0002ms, 1252ms total)
T1EE4 005:474 JLINK_ReadMem (0x40001400, 0x0004 Bytes, ...) -- CPU is running -- CPU_ReadMem(4 bytes @ 0x40001400) - Data: 01 00 00 00  returns 0x00 (0002ms, 1254ms total)
T1EE4 005:476 JLINK_ReadMem (0x4000140C, 0x0004 Bytes, ...) -- CPU is running -- CPU_ReadMem(4 bytes @ 0x4000140C) - Data: BB 7D 7C 00  returns 0x00 (0001ms, 1255ms total)
T1EE4 005:478 JLINK_ReadMem (0x4000140C, 0x0004 Bytes, ...) -- CPU is running -- CPU_ReadMem(4 bytes @ 0x4000140C) - Data: BB 7D 7C 00  returns 0x00 (0002ms, 1257ms total)
T1EE4 005:480 JLINK_ReadMem (0x40001504, 0x0004 Bytes, ...) -- CPU is running -- CPU_ReadMem(4 bytes @ 0x40001504) - Data: 7F 01 00 20  returns 0x00 (0002ms, 1259ms total)
T1EE4 005:482 JLINK_ReadMem (0x40001508, 0x0004 Bytes, ...) -- CPU is running -- CPU_ReadMem(4 bytes @ 0x40001508) - Data: 1A 00 00 00  returns 0x00 (0003ms, 1262ms total)
T1EE4 005:485 JLINK_ReadMem (0x40001508, 0x0004 Bytes, ...) -- CPU is running -- CPU_ReadMem(4 bytes @ 0x40001508) - Data: 1A 00 00 00  returns 0x00 (0002ms, 1264ms total)
T1EE4 005:488 JLINK_ReadMem (0x40001510, 0x0004 Bytes, ...) -- CPU is running -- CPU_ReadMem(4 bytes @ 0x40001510) - Data: 03 00 00 00  returns 0x00 (0003ms, 1267ms total)
T1EE4 005:491 JLINK_ReadMem (0x40001510, 0x0004 Bytes, ...) -- CPU is running -- CPU_ReadMem(4 bytes @ 0x40001510) - Data: 03 00 00 00  returns 0x00 (0001ms, 1268ms total)
T1EE4 005:493 JLINK_ReadMem (0x40001514, 0x0004 Bytes, ...) -- CPU is running -- CPU_ReadMem(4 bytes @ 0x40001514) - Data: 06 01 02 00  returns 0x00 (0000ms, 1269ms total)
T1EE4 005:493 JLINK_ReadMem (0x40001514, 0x0004 Bytes, ...) -- CPU is running -- CPU_ReadMem(4 bytes @ 0x40001514) - Data: 06 01 02 00  returns 0x00 (0002ms, 1271ms total)
T1EE4 005:495 JLINK_ReadMem (0x40001514, 0x0004 Bytes, ...) -- CPU is running -- CPU_ReadMem(4 bytes @ 0x40001514) - Data: 06 01 02 00  returns 0x00 (0002ms, 1273ms total)
T1EE4 005:497 JLINK_ReadMem (0x40001514, 0x0004 Bytes, ...) -- CPU is running -- CPU_ReadMem(4 bytes @ 0x40001514) - Data: 06 01 02 00  returns 0x00 (0001ms, 1274ms total)
T1EE4 005:499 JLINK_ReadMem (0x40001518, 0x0004 Bytes, ...) -- CPU is running -- CPU_ReadMem(4 bytes @ 0x40001518) - Data: 25 00 03 02  returns 0x00 (0001ms, 1275ms total)
T1EE4 005:500 JLINK_ReadMem (0x40001518, 0x0004 Bytes, ...) -- CPU is running -- CPU_ReadMem(4 bytes @ 0x40001518) - Data: 25 00 03 02  returns 0x00 (0002ms, 1277ms total)
T1EE4 005:502 JLINK_ReadMem (0x40001518, 0x0004 Bytes, ...) -- CPU is running -- CPU_ReadMem(4 bytes @ 0x40001518) - Data: 25 00 03 02  returns 0x00 (0002ms, 1279ms total)
T1EE4 005:504 JLINK_ReadMem (0x40001518, 0x0004 Bytes, ...) -- CPU is running -- CPU_ReadMem(4 bytes @ 0x40001518) - Data: 25 00 03 02  returns 0x00 (0003ms, 1282ms total)
T1EE4 005:507 JLINK_ReadMem (0x40001518, 0x0004 Bytes, ...) -- CPU is running -- CPU_ReadMem(4 bytes @ 0x40001518) - Data: 25 00 03 02  returns 0x00 (0001ms, 1283ms total)
T1EE4 005:508 JLINK_ReadMem (0x40001518, 0x0004 Bytes, ...) -- CPU is running -- CPU_ReadMem(4 bytes @ 0x40001518) - Data: 25 00 03 02  returns 0x00 (0003ms, 1286ms total)
T1EE4 005:511 JLINK_ReadMem (0x4000151C, 0x0004 Bytes, ...) -- CPU is running -- CPU_ReadMem(4 bytes @ 0x4000151C) - Data: 00 D6 BE 89  returns 0x00 (0002ms, 1288ms total)
T1EE4 005:513 JLINK_ReadMem (0x40001524, 0x0004 Bytes, ...) -- CPU is running -- CPU_ReadMem(4 bytes @ 0x40001524) - Data: 8E 00 00 00  returns 0x00 (0001ms, 1289ms total)
T1EE4 005:515 JLINK_ReadMem (0x40001524, 0x0004 Bytes, ...) -- CPU is running -- CPU_ReadMem(4 bytes @ 0x40001524) - Data: 8E 00 00 00  returns 0x00 (0002ms, 1291ms total)
T1EE4 005:517 JLINK_ReadMem (0x40001524, 0x0004 Bytes, ...) -- CPU is running -- CPU_ReadMem(4 bytes @ 0x40001524) - Data: 8E 00 00 00  returns 0x00 (0002ms, 1293ms total)
T1EE4 005:519 JLINK_ReadMem (0x40001524, 0x0004 Bytes, ...) -- CPU is running -- CPU_ReadMem(4 bytes @ 0x40001524) - Data: 8E 00 00 00  returns 0x00 (0002ms, 1295ms total)
T1EE4 005:521 JLINK_ReadMem (0x40001524, 0x0004 Bytes, ...) -- CPU is running -- CPU_ReadMem(4 bytes @ 0x40001524) - Data: 8E 00 00 00  returns 0x00 (0001ms, 1296ms total)
T1EE4 005:523 JLINK_ReadMem (0x40001530, 0x0004 Bytes, ...) -- CPU is running -- CPU_ReadMem(4 bytes @ 0x40001530) - Data: 01 00 00 00  returns 0x00 (0001ms, 1298ms total)
T1EE4 005:524 JLINK_ReadMem (0x40001530, 0x0004 Bytes, ...) -- CPU is running -- CPU_ReadMem(4 bytes @ 0x40001530) - Data: 01 00 00 00  returns 0x00 (0002ms, 1300ms total)
T1EE4 005:526 JLINK_ReadMem (0x40001530, 0x0004 Bytes, ...) -- CPU is running -- CPU_ReadMem(4 bytes @ 0x40001530) - Data: 01 00 00 00  returns 0x00 (0002ms, 1302ms total)
T1EE4 005:528 JLINK_ReadMem (0x40001530, 0x0004 Bytes, ...) -- CPU is running -- CPU_ReadMem(4 bytes @ 0x40001530) - Data: 01 00 00 00  returns 0x00 (0002ms, 1304ms total)
T1EE4 005:530 JLINK_ReadMem (0x40001530, 0x0004 Bytes, ...) -- CPU is running -- CPU_ReadMem(4 bytes @ 0x40001530) - Data: 01 00 00 00  returns 0x00 (0001ms, 1305ms total)
T1EE4 005:531 JLINK_ReadMem (0x40001530, 0x0004 Bytes, ...) -- CPU is running -- CPU_ReadMem(4 bytes @ 0x40001530) - Data: 01 00 00 00  returns 0x00 (0003ms, 1308ms total)
T1EE4 005:534 JLINK_ReadMem (0x40001530, 0x0004 Bytes, ...) -- CPU is running -- CPU_ReadMem(4 bytes @ 0x40001530) - Data: 01 00 00 00  returns 0x00 (0001ms, 1309ms total)
T1EE4 005:535 JLINK_ReadMem (0x40001530, 0x0004 Bytes, ...) -- CPU is running -- CPU_ReadMem(4 bytes @ 0x40001530) - Data: 01 00 00 00  returns 0x00 (0001ms, 1310ms total)
T1EE4 005:536 JLINK_ReadMem (0x40001530, 0x0004 Bytes, ...) -- CPU is running -- CPU_ReadMem(4 bytes @ 0x40001530) - Data: 01 00 00 00  returns 0x00 (0003ms, 1313ms total)
T1EE4 005:539 JLINK_ReadMem (0x40001534, 0x0004 Bytes, ...) -- CPU is running -- CPU_ReadMem(4 bytes @ 0x40001534) - Data: 03 01 00 00  returns 0x00 (0001ms, 1314ms total)
T1EE4 005:540 JLINK_ReadMem (0x40001534, 0x0004 Bytes, ...) -- CPU is running -- CPU_ReadMem(4 bytes @ 0x40001534) - Data: 03 01 00 00  returns 0x00 (0003ms, 1317ms total)
T1EE4 005:543 JLINK_ReadMem (0x40001534, 0x0004 Bytes, ...) -- CPU is running -- CPU_ReadMem(4 bytes @ 0x40001534) - Data: 03 01 00 00  returns 0x00 (0001ms, 1318ms total)
T1EE4 005:545 JLINK_ReadMem (0x40001538, 0x0004 Bytes, ...) -- CPU is running -- CPU_ReadMem(4 bytes @ 0x40001538) - Data: 5B 06 00 00  returns 0x00 (0001ms, 1319ms total)
T1EE4 005:546 JLINK_ReadMem (0x40001538, 0x0004 Bytes, ...) -- CPU is running -- CPU_ReadMem(4 bytes @ 0x40001538) - Data: 5B 06 00 00  returns 0x00 (0002ms, 1321ms total)
T1EE4 005:548 JLINK_ReadMem (0x4000153C, 0x0004 Bytes, ...) -- CPU is running -- CPU_ReadMem(4 bytes @ 0x4000153C) - Data: 55 55 55 00  returns 0x00 (0002ms, 1323ms total)
T1EE4 005:550 JLINK_ReadMem (0x4000153C, 0x0004 Bytes, ...) -- CPU is running -- CPU_ReadMem(4 bytes @ 0x4000153C) - Data: 55 55 55 00  returns 0x00 (0003ms, 1326ms total)
T1EE4 005:553 JLINK_ReadMem (0x40001544, 0x0004 Bytes, ...) -- CPU is running -- CPU_ReadMem(4 bytes @ 0x40001544) - Data: 91 00 00 00  returns 0x00 (0002ms, 1328ms total)
T1EE4 005:555 JLINK_ReadMem (0x40001544, 0x0004 Bytes, ...) -- CPU is running -- CPU_ReadMem(4 bytes @ 0x40001544) - Data: 91 00 00 00  returns 0x00 (0002ms, 1330ms total)
T1EE4 005:557 JLINK_ReadMem (0x40001550, 0x0004 Bytes, ...) -- CPU is running -- CPU_ReadMem(4 bytes @ 0x40001550) - Data: 03 00 00 00  returns 0x00 (0002ms, 1332ms total)
T1EE4 005:559 JLINK_ReadMem (0x40001550, 0x0004 Bytes, ...) -- CPU is running -- CPU_ReadMem(4 bytes @ 0x40001550) - Data: 03 00 00 00  returns 0x00 (0001ms, 1333ms total)
T1EE4 005:561 JLINK_ReadMem (0x40001554, 0x0004 Bytes, ...) -- CPU is running -- CPU_ReadMem(4 bytes @ 0x40001554) - Data: 66 00 00 00  returns 0x00 (0001ms, 1334ms total)
T1EE4 005:562 JLINK_ReadMem (0x40001554, 0x0004 Bytes, ...) -- CPU is running -- CPU_ReadMem(4 bytes @ 0x40001554) - Data: 66 00 00 00  returns 0x00 (0002ms, 1336ms total)
T2D90 005:565 JLINK_IsHalted()  returns FALSE (0002ms, 1338ms total)
T2D90 005:667 JLINK_IsHalted()  returns FALSE (0018ms, 1354ms total)
T2D90 005:785 JLINK_IsHalted()  returns FALSE (0023ms, 1359ms total)
T1EE4 005:911 JLINK_ReadMem (0x40008000, 0x0010 Bytes, ...) -- CPU is running -- CPU_ReadMem(16 bytes @ 0x40008000) - Data: 00 00 00 00 00 00 00 00 00 00 00 00 00 00 00 00  returns 0x00 (0019ms, 1355ms total)
T1EE4 005:930 JLINK_ReadMem (0x40008010, 0x0004 Bytes, ...) -- CPU is running -- CPU_ReadMem(4 bytes @ 0x40008010) - Data: 00 00 00 00  returns 0x00 (0002ms, 1357ms total)
T1EE4 005:932 JLINK_ReadMem (0x40008040, 0x000C Bytes, ...) -- CPU is running -- CPU_ReadMem(12 bytes @ 0x40008040) - Data: 00 00 00 00 00 00 00 00 00 00 00 00  returns 0x00 (0002ms, 1359ms total)
T1EE4 005:934 JLINK_ReadMem (0x4000804C, 0x0004 Bytes, ...) -- CPU is running -- CPU_ReadMem(4 bytes @ 0x4000804C) - Data: 00 00 00 00  returns 0x00 (0002ms, 1361ms total)
T1EE4 005:936 JLINK_ReadMem (0x40008140, 0x000C Bytes, ...) -- CPU is running -- CPU_ReadMem(12 bytes @ 0x40008140) - Data: 00 00 00 00 00 00 00 00 00 00 00 00  returns 0x00 (0001ms, 1362ms total)
T1EE4 005:937 JLINK_ReadMem (0x4000814C, 0x0004 Bytes, ...) -- CPU is running -- CPU_ReadMem(4 bytes @ 0x4000814C) - Data: 00 00 00 00  returns 0x00 (0003ms, 1365ms total)
T1EE4 005:940 JLINK_ReadMem (0x40008200, 0x0004 Bytes, ...) -- CPU is running -- CPU_ReadMem(4 bytes @ 0x40008200) - Data: 00 00 00 00  returns 0x00 (0002ms, 1367ms total)
T1EE4 005:943 JLINK_ReadMem (0x40008304, 0x0004 Bytes, ...) -- CPU is running -- CPU_ReadMem(4 bytes @ 0x40008304) - Data: 00 00 0F 00  returns 0x00 (0001ms, 1369ms total)
T1EE4 005:944 JLINK_ReadMem (0x40008308, 0x0004 Bytes, ...) -- CPU is running -- CPU_ReadMem(4 bytes @ 0x40008308) - Data: 00 00 0F 00  returns 0x00 (0002ms, 1371ms total)
T1EE4 005:946 JLINK_ReadMem (0x40008504, 0x0004 Bytes, ...) -- CPU is running -- CPU_ReadMem(4 bytes @ 0x40008504) - Data: 00 00 00 00  returns 0x00 (0002ms, 1373ms total)
T1EE4 005:948 JLINK_ReadMem (0x40008508, 0x0004 Bytes, ...) -- CPU is running -- CPU_ReadMem(4 bytes @ 0x40008508) - Data: 00 00 00 00  returns 0x00 (0002ms, 1375ms total)
T1EE4 005:950 JLINK_ReadMem (0x40008510, 0x0004 Bytes, ...) -- CPU is running -- CPU_ReadMem(4 bytes @ 0x40008510) - Data: 04 00 00 00  returns 0x00 (0001ms, 1376ms total)
T1EE4 005:951 JLINK_ReadMem (0x40008540, 0x000C Bytes, ...) -- CPU is running -- CPU_ReadMem(12 bytes @ 0x40008540) - Data: 28 3C 00 00 1E 7C 00 00 34 3A 00 00  returns 0x00 (0002ms, 1378ms total)
T1EE4 005:953 JLINK_ReadMem (0x4000854C, 0x0004 Bytes, ...) -- CPU is running -- CPU_ReadMem(4 bytes @ 0x4000854C) - Data: 42 0E 00 00  returns 0x00 (0002ms, 1380ms total)
T1EE4 005:955 JLINK_ReadMem (0x40008FFC, 0x0004 Bytes, ...) -- CPU is running -- CPU_ReadMem(4 bytes @ 0x40008FFC) - Data: 01 00 00 00  returns 0x00 (0001ms, 1381ms total)
T1EE4 005:956 JLINK_ReadMem (0x40008540, 0x0004 Bytes, ...) -- CPU is running -- CPU_ReadMem(4 bytes @ 0x40008540) - Data: 28 3C 00 00  returns 0x00 (0002ms, 1383ms total)
T1EE4 005:958 JLINK_ReadMem (0x40008544, 0x0004 Bytes, ...) -- CPU is running -- CPU_ReadMem(4 bytes @ 0x40008544) - Data: 1E 7C 00 00  returns 0x00 (0002ms, 1385ms total)
T1EE4 005:960 JLINK_ReadMem (0x40008548, 0x0004 Bytes, ...) -- CPU is running -- CPU_ReadMem(4 bytes @ 0x40008548) - Data: 34 3A 00 00  returns 0x00 (0001ms, 1386ms total)
T1EE4 005:961 JLINK_ReadMem (0x4000854C, 0x0004 Bytes, ...) -- CPU is running -- CPU_ReadMem(4 bytes @ 0x4000854C) - Data: 42 0E 00 00  returns 0x00 (0003ms, 1389ms total)
T1EE4 005:964 JLINK_ReadMem (0x40001000, 0x0020 Bytes, ...) -- CPU is running -- CPU_ReadMem(32 bytes @ 0x40001000) - Data: 00 00 00 00 00 00 00 00 00 00 00 00 00 00 00 00 ...  returns 0x00 (0002ms, 1391ms total)
T1EE4 005:966 JLINK_ReadMem (0x40001020, 0x0004 Bytes, ...) -- CPU is running -- CPU_ReadMem(4 bytes @ 0x40001020) - Data: 00 00 00 00  returns 0x00 (0001ms, 1392ms total)
